
**** 10/23/19 02:37:52 ********* PSpice 9.2 (Mar 2000) ******** ID# 0 ********

 * C:\Users\User\Desktop\New folder (2)\PSpice Solution for assignment 2  RL circuits only\RLRC updated\3RL.sch


 ****     CIRCUIT DESCRIPTION


******************************************************************************




* Schematics Version 9.2
* Wed Oct 23 02:37:52 2019



** Analysis setup **
.tran 0ns 122us 0ms 1us
.OP 


* From [PSPICE NETLIST] section of C:\Program Files\Orcad\PSpice\PSpice.ini:
.lib "nom.lib"

.INC "3RL.net"



**** INCLUDING 3RL.net ****
* Schematics Netlist *



X_U1         $N_0001 $N_0002 Sw_tClose PARAMS: tClose=0 ttran=1u Rclosed=0.01
+  Ropen=1Meg
R_R1         $N_0002 a  4.68k  
R_R2         0 b  14.45k  
L_L1         a b  212.5mH IC=4mH 
V_V2         $N_0001 0  
+PULSE 16 0 0 .1ns .1ns 22us 44us

**** RESUMING 3RL.cir ****
.PROBE V(*) I(*) W(*) D(*) NOISE(*) 


.END

**** 10/23/19 02:37:52 ********* PSpice 9.2 (Mar 2000) ******** ID# 0 ********

 * C:\Users\User\Desktop\New folder (2)\PSpice Solution for assignment 2  RL circuits only\RLRC updated\3RL.sch


 ****     Voltage Controlled Switch MODEL PARAMETERS


******************************************************************************




               X_U1.Smod       
         RON     .01         
        ROFF    1.000000E+06 
         VON    1            
        VOFF    0            


**** 10/23/19 02:37:52 ********* PSpice 9.2 (Mar 2000) ******** ID# 0 ********

 * C:\Users\User\Desktop\New folder (2)\PSpice Solution for assignment 2  RL circuits only\RLRC updated\3RL.sch


 ****     SMALL SIGNAL BIAS SOLUTION       TEMPERATURE =   27.000 DEG C


******************************************************************************



 NODE   VOLTAGE     NODE   VOLTAGE     NODE   VOLTAGE     NODE   VOLTAGE


(    a)-3998.6000  (    b)   57.7410  (X_U1.3)    0.0000 ($N_0001)   16.0000    

($N_0002)-3979.9000                   




    VOLTAGE SOURCE CURRENTS
    NAME         CURRENT

    V_V2        -3.996E-03
    X_U1.V1      0.000E+00

    TOTAL POWER DISSIPATION   6.39E-02  WATTS


**** 10/23/19 02:37:52 ********* PSpice 9.2 (Mar 2000) ******** ID# 0 ********

 * C:\Users\User\Desktop\New folder (2)\PSpice Solution for assignment 2  RL circuits only\RLRC updated\3RL.sch


 ****     OPERATING POINT INFORMATION      TEMPERATURE =   27.000 DEG C


******************************************************************************






**** VOLTAGE CONTROLLED SWITCHES


NAME         X_U1.S1   
MODEL        X_U1.Smod 
I LOAD       4.00E-03 
V LOAD       4.00E+03 
R LOAD       1.00E+06 
V CTRL       0.00E+00 
**** 10/23/19 02:37:52 ********* PSpice 9.2 (Mar 2000) ******** ID# 0 ********

 * C:\Users\User\Desktop\New folder (2)\PSpice Solution for assignment 2  RL circuits only\RLRC updated\3RL.sch


 ****     INITIAL TRANSIENT SOLUTION       TEMPERATURE =   27.000 DEG C


******************************************************************************



 NODE   VOLTAGE     NODE   VOLTAGE     NODE   VOLTAGE     NODE   VOLTAGE


(    a)-3998.6000  (    b)   57.7410  (X_U1.3)    0.0000 ($N_0001)   16.0000    

($N_0002)-3979.9000                   




    VOLTAGE SOURCE CURRENTS
    NAME         CURRENT

    V_V2        -3.996E-03
    X_U1.V1      0.000E+00

    TOTAL POWER DISSIPATION   6.39E-02  WATTS



          JOB CONCLUDED

          TOTAL JOB TIME             .02
